
**** 03/26/20 12:22:55 ******* PSpice Lite (March 2016) ******* ID# 10813 ****

 ** Profile: "SCHEMATIC1-lab5"  [ c:\users\yoyol\desktop\facultate\labroatorul5-pspicefiles\schematic1\lab5.sim ] 


 ****     CIRCUIT DESCRIPTION


******************************************************************************




** Creating circuit file "lab5.cir" 
** WARNING: THIS AUTOMATICALLY GENERATED FILE MAY BE OVERWRITTEN BY SUBSEQUENT SIMULATIONS

*Libraries: 
* Profile Libraries :
* Local Libraries :
* From [PSPICE NETLIST] section of C:\Users\yoyol\AppData\Roaming\SPB_Data\cdssetup\OrCAD_PSpice\17.2.0\PSpice.ini file:
.lib "nomd.lib" 

*Analysis directives: 
.TRAN  0 5m 0 10u 
.FOUR 1k 30 V([OUT1]) V([OUT2]) 
.OPTIONS ADVCONV
.PROBE64 V(alias(*)) I(alias(*)) W(alias(*)) D(alias(*)) NOISE(alias(*)) 
.INC "..\SCHEMATIC1.net" 



**** INCLUDING SCHEMATIC1.net ****
* source LABROATORUL5
V_V1         V+ 0 15V
V_V2         0 V- 15V
V_V3         IN 0  
+SIN 0 1V 1kHz 0 0 0
Q_Q1         V+ IN OUT1 Q2N3904
Q_Q2         V- IN OUT1 Q2N3906
R_R1         OUT1 0  100 TC=0,0 
R_R2         N02668 V+  10k TC=0,0 
R_R5         V- N03076  10k TC=0,0 
R_R6         0 OUT2  100 TC=0,0 
Q_Q3         V+ N02668 OUT2 Q2N3904
Q_Q4         V- N03076 OUT2 Q2N3906
R_R3         IN N02668  500 TC=0,0 
R_R4         N03076 IN  500 TC=0,0 

**** RESUMING lab5.cir ****
.END

**** 03/26/20 12:22:55 ******* PSpice Lite (March 2016) ******* ID# 10813 ****

 ** Profile: "SCHEMATIC1-lab5"  [ c:\users\yoyol\desktop\facultate\labroatorul5-pspicefiles\schematic1\lab5.sim ] 


 ****     BJT MODEL PARAMETERS


******************************************************************************




               Q2N3904         Q2N3906         
               NPN             PNP             
       LEVEL    1               1            
          IS    6.734000E-15    1.410000E-15 
          BF  416.4           180.7          
          NF    1               1            
         VAF   74.03           18.7          
         IKF     .06678          .08         
         ISE    6.734000E-15                 
          NE    1.259                        
          BR     .7371          4.977        
          NR    1               1            
         ISS    0               0            
          RB   10              10            
          RE    0               0            
          RC    1               2.5          
         CJE    4.493000E-12    8.063000E-12 
         VJE     .75             .75         
         MJE     .2593           .3677       
         CJC    3.638000E-12    9.728000E-12 
         VJC     .75             .75         
         MJC     .3085           .5776       
        XCJC    1               1            
         CJS    0               0            
         VJS     .75             .75         
          TF  301.200000E-12  179.300000E-12 
         XTF    2               6            
         VTF    4               4            
         ITF     .4              .4          
          TR  239.500000E-09   33.420000E-09 
         XTB    1.5             1.5          
          KF    0               0            
          AF    1               1            
          CN    2.42            2.2          
           D     .87             .52         


**** 03/26/20 12:22:55 ******* PSpice Lite (March 2016) ******* ID# 10813 ****

 ** Profile: "SCHEMATIC1-lab5"  [ c:\users\yoyol\desktop\facultate\labroatorul5-pspicefiles\schematic1\lab5.sim ] 


 ****     INITIAL TRANSIENT SOLUTION       TEMPERATURE =   27.000 DEG C


******************************************************************************



 NODE   VOLTAGE     NODE   VOLTAGE     NODE   VOLTAGE     NODE   VOLTAGE


(   IN)    0.0000  (   V+)   15.0000  (   V-)  -15.0000  ( OUT1)-898.7E-12      

( OUT2)     .0124  (N02668)     .7054 (N03076)    -.7094 




    VOLTAGE SOURCE CURRENTS
    NAME         CURRENT

    V_V1        -4.742E-03
    V_V2        -4.626E-03
    V_V3        -7.986E-06

    TOTAL POWER DISSIPATION   1.41E-01  WATTS


**** 03/26/20 12:22:55 ******* PSpice Lite (March 2016) ******* ID# 10813 ****

 ** Profile: "SCHEMATIC1-lab5"  [ c:\users\yoyol\desktop\facultate\labroatorul5-pspicefiles\schematic1\lab5.sim ] 


 ****     FOURIER ANALYSIS                 TEMPERATURE =   27.000 DEG C


******************************************************************************



FOURIER COMPONENTS OF TRANSIENT RESPONSE V(OUT1)



 DC COMPONENT =   7.1562E-03

 HARMONIC   FREQUENCY     FOURIER     NORMALIZED     PHASE     NORMALIZED
    NO         (HZ)      COMPONENT     COMPONENT     (DEG)     PHASE (DEG)

     1    1.0000E+03   1.9627E-01   1.0000E+00   2.7476E-04   0.0000E+00
     2    2.0000E+03   8.3055E-03   4.2317E-02  -8.9879E+01  -8.9880E+01
     3    3.0000E+03   9.9941E-02   5.0920E-01  -1.8000E+02  -1.8000E+02
     4    4.0000E+03   7.8489E-04   3.9990E-03  -8.7513E+01  -8.7514E+01
     5    5.0000E+03   9.3945E-03   4.7865E-02   1.5414E-01   1.5276E-01
     6    6.0000E+03   2.0460E-03   1.0424E-02   9.1087E+01   9.1085E+01
     7    7.0000E+03   1.3051E-02   6.6493E-02  -6.0297E-02  -6.2221E-02
     8    8.0000E+03   7.9742E-04   4.0628E-03   9.1563E+01   9.1560E+01
     9    9.0000E+03   1.0043E-04   5.1170E-04  -1.7159E+02  -1.7160E+02
    10    1.0000E+04   7.1074E-04   3.6212E-03  -8.8473E+01  -8.8476E+01
    11    1.1000E+04   3.8645E-03   1.9690E-02   1.7990E+02   1.7989E+02
    12    1.2000E+04   6.1706E-04   3.1439E-03  -8.7942E+01  -8.7945E+01
    13    1.3000E+04   8.9053E-04   4.5372E-03   1.7921E+02   1.7920E+02
    14    1.4000E+04   1.6908E-04   8.6148E-04   9.1410E+01   9.1406E+01
    15    1.5000E+04   1.2354E-03   6.2945E-03  -2.5369E-02  -2.9491E-02
    16    1.6000E+04   3.9613E-04   2.0183E-03   9.2766E+01   9.2762E+01
    17    1.7000E+04   7.0975E-04   3.6162E-03  -9.0924E-01  -9.1391E-01
    18    1.8000E+04   4.9144E-05   2.5039E-04   9.4442E+01   9.4437E+01
    19    1.9000E+04   3.1722E-04   1.6162E-03  -1.7946E+02  -1.7947E+02
    20    2.0000E+04   2.0818E-04   1.0607E-03  -8.6673E+01  -8.6678E+01
    21    2.1000E+04   4.0643E-04   2.0707E-03   1.7882E+02   1.7881E+02
    22    2.2000E+04   1.0649E-04   5.4255E-04  -8.6239E+01  -8.6245E+01
    23    2.3000E+04   1.7402E-05   8.8661E-05   1.5734E+01   1.5727E+01
    24    2.4000E+04   8.0038E-05   4.0779E-04   9.3544E+01   9.3537E+01
    25    2.5000E+04   1.8900E-04   9.6298E-04  -1.3219E+00  -1.3288E+00
    26    2.6000E+04   9.2703E-05   4.7232E-04   9.4362E+01   9.4355E+01
    27    2.7000E+04   5.1695E-05   2.6339E-04  -5.9776E+00  -5.9850E+00
    28    2.8000E+04   1.0163E-05   5.1779E-05  -8.7148E+01  -8.7156E+01
    29    2.9000E+04   7.0642E-05   3.5992E-04   1.7910E+02   1.7909E+02
    30    3.0000E+04   5.8493E-05   2.9802E-04  -8.4990E+01  -8.4998E+01


     TOTAL HARMONIC DISTORTION =   5.1810E+01 PERCENT

**** 03/26/20 12:22:55 ******* PSpice Lite (March 2016) ******* ID# 10813 ****

 ** Profile: "SCHEMATIC1-lab5"  [ c:\users\yoyol\desktop\facultate\labroatorul5-pspicefiles\schematic1\lab5.sim ] 


 ****     FOURIER ANALYSIS                 TEMPERATURE =   27.000 DEG C


******************************************************************************



FOURIER COMPONENTS OF TRANSIENT RESPONSE V(OUT2)



 DC COMPONENT =   1.1270E-02

 HARMONIC   FREQUENCY     FOURIER     NORMALIZED     PHASE     NORMALIZED
    NO         (HZ)      COMPONENT     COMPONENT     (DEG)     PHASE (DEG)

     1    1.0000E+03   9.0716E-01   1.0000E+00   4.3025E-04   0.0000E+00
     2    2.0000E+03   1.0863E-03   1.1975E-03   9.2231E+01   9.2231E+01
     3    3.0000E+03   5.3225E-04   5.8673E-04  -1.7779E+02  -1.7779E+02
     4    4.0000E+03   6.8377E-05   7.5376E-05   7.9132E+01   7.9130E+01
     5    5.0000E+03   4.3319E-05   4.7752E-05   1.6884E+02   1.6884E+02
     6    6.0000E+03   7.4072E-06   8.1653E-06   1.2758E+02   1.2758E+02
     7    7.0000E+03   2.0549E-06   2.2652E-06  -1.1670E+02  -1.1670E+02
     8    8.0000E+03   4.3521E-06   4.7976E-06   7.8384E+01   7.8380E+01
     9    9.0000E+03   2.6018E-06   2.8681E-06   1.7220E+02   1.7220E+02
    10    1.0000E+04   1.2319E-06   1.3580E-06  -4.9512E+01  -4.9516E+01
    11    1.1000E+04   1.9815E-06   2.1843E-06   5.7851E+01   5.7846E+01
    12    1.2000E+04   1.4984E-06   1.6518E-06   1.3636E+02   1.3636E+02
    13    1.3000E+04   4.2879E-07   4.7268E-07  -6.5655E+01  -6.5660E+01
    14    1.4000E+04   9.5939E-07   1.0576E-06   4.8014E+01   4.8008E+01
    15    1.5000E+04   1.2462E-06   1.3738E-06   1.1162E+02   1.1161E+02
    16    1.6000E+04   6.8622E-07   7.5646E-07  -1.5276E+02  -1.5277E+02
    17    1.7000E+04   6.5757E-07   7.2487E-07   3.7779E+01   3.7772E+01
    18    1.8000E+04   1.0442E-06   1.1511E-06   1.0029E+02   1.0029E+02
    19    1.9000E+04   4.9724E-07   5.4813E-07   1.5925E+02   1.5925E+02
    20    2.0000E+04   4.3740E-07   4.8217E-07   3.7967E+01   3.7958E+01
    21    2.1000E+04   9.1528E-07   1.0090E-06   8.6941E+01   8.6932E+01
    22    2.2000E+04   5.8010E-07   6.3947E-07   1.3445E+02   1.3444E+02
    23    2.3000E+04   2.9265E-07   3.2260E-07   5.5366E+01   5.5356E+01
    24    2.4000E+04   7.7946E-07   8.5924E-07   7.7715E+01   7.7705E+01
    25    2.5000E+04   6.4429E-07   7.1023E-07   1.1826E+02   1.1825E+02
    26    2.6000E+04   3.1643E-07   3.4882E-07   8.4363E+01   8.4352E+01
    27    2.7000E+04   6.8338E-07   7.5332E-07   7.1532E+01   7.1520E+01
    28    2.8000E+04   8.5019E-07   9.3720E-07   9.9116E+01   9.9104E+01
    29    2.9000E+04   3.2510E-07   3.5837E-07   1.1192E+02   1.1190E+02
    30    3.0000E+04   6.5790E-07   7.2523E-07   6.9272E+01   6.9259E+01


     TOTAL HARMONIC DISTORTION =   1.3365E-01 PERCENT


          JOB CONCLUDED

**** 03/26/20 12:22:55 ******* PSpice Lite (March 2016) ******* ID# 10813 ****

 ** Profile: "SCHEMATIC1-lab5"  [ c:\users\yoyol\desktop\facultate\labroatorul5-pspicefiles\schematic1\lab5.sim ] 


 ****     JOB STATISTICS SUMMARY


******************************************************************************



  Total job time (using Solver 1)   =         .06
