
**** 03/16/20 18:32:33 ******* PSpice Lite (March 2016) ******* ID# 10813 ****

 ** Profile: "SCHEMATIC1-Laborator3"  [ C:\Users\yoyol\Desktop\Facultate\laborator3-pspicefiles\schematic1\laborator3.sim ] 


 ****     CIRCUIT DESCRIPTION


******************************************************************************




** Creating circuit file "Laborator3.cir" 
** WARNING: THIS AUTOMATICALLY GENERATED FILE MAY BE OVERWRITTEN BY SUBSEQUENT SIMULATIONS

*Libraries: 
* Profile Libraries :
* Local Libraries :
* From [PSPICE NETLIST] section of C:\Users\yoyol\AppData\Roaming\SPB_Data\cdssetup\OrCAD_PSpice\17.2.0\PSpice.ini file:
.lib "nomd.lib" 

*Analysis directives: 
.AC DEC 10 1 100Meg
.OPTIONS ADVCONV
.PROBE64 V(alias(*)) I(alias(*)) W(alias(*)) D(alias(*)) NOISE(alias(*)) 
.INC "..\SCHEMATIC1.net" 



**** INCLUDING SCHEMATIC1.net ****
* source LABORATOR3
R_R1         IN VN  100k TC=0,0 
R_R2         VN OUT  100k TC=0,0 
R_R3         0 VP  10k TC=0,0 
R_R4         0 OUT  10k TC=0,0 
V_V3         IN 0 DC 0Vdc AC 1Vac 
V_V1         V+ 0 15V
V_V2         0 V- 15V
X_U1A         VP VN V+ V- OUT LM324

**** RESUMING Laborator3.cir ****
.END

**** 03/16/20 18:32:33 ******* PSpice Lite (March 2016) ******* ID# 10813 ****

 ** Profile: "SCHEMATIC1-Laborator3"  [ C:\Users\yoyol\Desktop\Facultate\laborator3-pspicefiles\schematic1\laborator3.sim ] 


 ****     Diode MODEL PARAMETERS


******************************************************************************




               X_U1A.dx        X_U1A.dy        
          IS  800.000000E-18  800.000000E-18 
          RS    1               1.000000E-03 
         CJO                   10.000000E-12 


**** 03/16/20 18:32:33 ******* PSpice Lite (March 2016) ******* ID# 10813 ****

 ** Profile: "SCHEMATIC1-Laborator3"  [ C:\Users\yoyol\Desktop\Facultate\laborator3-pspicefiles\schematic1\laborator3.sim ] 


 ****     BJT MODEL PARAMETERS


******************************************************************************




               X_U1A.qx        
               PNP             
       LEVEL    1            
          IS  800.000000E-18 
          BF  166.7          
          NF    1            
          BR    1            
          NR    1            
         ISS    0            
          RE    0            
          RC    0            
         CJE    0            
         VJE     .75         
         CJC    0            
         VJC     .75         
         MJC     .33         
        XCJC    1            
         CJS    0            
         VJS     .75         
          KF    0            
          AF    1            
          CN    2.2          
           D     .52         


**** 03/16/20 18:32:33 ******* PSpice Lite (March 2016) ******* ID# 10813 ****

 ** Profile: "SCHEMATIC1-Laborator3"  [ C:\Users\yoyol\Desktop\Facultate\laborator3-pspicefiles\schematic1\laborator3.sim ] 


 ****     Current Controlled Switch MODEL PARAMETERS


******************************************************************************




               X_U1A.sw2       X_U1A.sw1       X_U1A.sw3       X_U1A.sw4       
         RON    1               1               1               1            
        ROFF   10.000000E+06   10.000000E+06   10.000000E+06   10.000000E+06 
         ION    0              -1.000000E-06   -1.000000E-06    0            
        IOFF   -1.000000E-06    0               0              -1.000000E-06 


**** 03/16/20 18:32:33 ******* PSpice Lite (March 2016) ******* ID# 10813 ****

 ** Profile: "SCHEMATIC1-Laborator3"  [ C:\Users\yoyol\Desktop\Facultate\laborator3-pspicefiles\schematic1\laborator3.sim ] 


 ****     SMALL SIGNAL BIAS SOLUTION       TEMPERATURE =   27.000 DEG C


******************************************************************************



 NODE   VOLTAGE     NODE   VOLTAGE     NODE   VOLTAGE     NODE   VOLTAGE


(   IN)    0.0000  (   V+)   15.0000  (   V-)  -15.0000  (   VN) 254.7E-06      

(   VP) 447.3E-06  (  OUT)    -.0040  (X_U1A.6) 757.3E-09                       

(X_U1A.7)    -.0040                   (X_U1A.8)    -.0040                       

(X_U1A.9)    0.0000                   (X_U1A.a)   14.1740                       

(X_U1A.b)    -.8257                   (X_U1A.10)     .6080                      

(X_U1A.11)  -14.9600                  (X_U1A.12)  -14.9600                      

(X_U1A.13)     .5941                  (X_U1A.14)     .5942                      

(X_U1A.53)   13.5000                  (X_U1A.54)  -14.1780                      

(X_U1A.90)-440.9E-06                  (X_U1A.91)   40.0000                      

(X_U1A.92)  -40.0000                  (X_U1A.99)    0.0000                  




    VOLTAGE SOURCE CURRENTS
    NAME         CURRENT

    V_V3         2.547E-09
    V_V1        -4.400E-03
    V_V2        -4.400E-03
    X_U1A.vb     7.573E-12
    X_U1A.vc     1.350E-11
    X_U1A.ve     1.612E-11
    X_U1A.vlim  -4.409E-07
    X_U1A.vlp   -4.000E-11
    X_U1A.vln   -4.000E-11

    TOTAL POWER DISSIPATION   1.32E-01  WATTS



          JOB CONCLUDED

**** 03/16/20 18:32:33 ******* PSpice Lite (March 2016) ******* ID# 10813 ****

 ** Profile: "SCHEMATIC1-Laborator3"  [ C:\Users\yoyol\Desktop\Facultate\laborator3-pspicefiles\schematic1\laborator3.sim ] 


 ****     JOB STATISTICS SUMMARY


******************************************************************************



  Total job time (using Solver 1)   =         .05
