
**** 05/21/20 19:12:29 ******* PSpice Lite (March 2016) ******* ID# 10813 ****

 ** Profile: "SCHEMATIC1-lab2"  [ C:\Users\yoyol\Desktop\Facultate\lab2-PSpiceFiles\SCHEMATIC1\lab2.sim ] 


 ****     CIRCUIT DESCRIPTION


******************************************************************************




** Creating circuit file "lab2.cir" 
** WARNING: THIS AUTOMATICALLY GENERATED FILE MAY BE OVERWRITTEN BY SUBSEQUENT SIMULATIONS

*Libraries: 
* Profile Libraries :
* Local Libraries :
* From [PSPICE NETLIST] section of C:\Users\yoyol\AppData\Roaming\SPB_Data\cdssetup\OrCAD_PSpice\17.2.0\PSpice.ini file:
.lib "nomd.lib" 

*Analysis directives: 
.TRAN  0 1000ns 0 
.OPTIONS ADVCONV
.PROBE64 V(alias(*)) I(alias(*)) W(alias(*)) D(alias(*)) NOISE(alias(*)) 
.INC "..\SCHEMATIC1.net" 



**** INCLUDING SCHEMATIC1.net ****
* source LAB2
X_U1A         0 N00190 N00249 N00256 OUT LM324
V_V1         N00249 0 15V
V_V2         0 N00256 15V
V_V3         IN 0 -1V
R_R1         IN N00190  10 TC=0,0 
R_R2         N00190 OUT  100 TC=0,0 
R_R3         OUT 0  10k TC=0,0 

**** RESUMING lab2.cir ****
.END

**** 05/21/20 19:12:29 ******* PSpice Lite (March 2016) ******* ID# 10813 ****

 ** Profile: "SCHEMATIC1-lab2"  [ C:\Users\yoyol\Desktop\Facultate\lab2-PSpiceFiles\SCHEMATIC1\lab2.sim ] 


 ****     Diode MODEL PARAMETERS


******************************************************************************




               X_U1A.dx        X_U1A.dy        
          IS  800.000000E-18  800.000000E-18 
          RS    1               1.000000E-03 
         CJO                   10.000000E-12 


**** 05/21/20 19:12:29 ******* PSpice Lite (March 2016) ******* ID# 10813 ****

 ** Profile: "SCHEMATIC1-lab2"  [ C:\Users\yoyol\Desktop\Facultate\lab2-PSpiceFiles\SCHEMATIC1\lab2.sim ] 


 ****     BJT MODEL PARAMETERS


******************************************************************************




               X_U1A.qx        
               PNP             
       LEVEL    1            
          IS  800.000000E-18 
          BF  166.7          
          NF    1            
          BR    1            
          NR    1            
         ISS    0            
          RE    0            
          RC    0            
         CJE    0            
         VJE     .75         
         CJC    0            
         VJC     .75         
         MJC     .33         
        XCJC    1            
         CJS    0            
         VJS     .75         
          KF    0            
          AF    1            
          CN    2.2          
           D     .52         


**** 05/21/20 19:12:29 ******* PSpice Lite (March 2016) ******* ID# 10813 ****

 ** Profile: "SCHEMATIC1-lab2"  [ C:\Users\yoyol\Desktop\Facultate\lab2-PSpiceFiles\SCHEMATIC1\lab2.sim ] 


 ****     Current Controlled Switch MODEL PARAMETERS


******************************************************************************




               X_U1A.sw2       X_U1A.sw1       X_U1A.sw3       X_U1A.sw4       
         RON    1               1               1               1            
        ROFF   10.000000E+06   10.000000E+06   10.000000E+06   10.000000E+06 
         ION    0              -1.000000E-06   -1.000000E-06    0            
        IOFF   -1.000000E-06    0               0              -1.000000E-06 


**** 05/21/20 19:12:29 ******* PSpice Lite (March 2016) ******* ID# 10813 ****

 ** Profile: "SCHEMATIC1-lab2"  [ C:\Users\yoyol\Desktop\Facultate\lab2-PSpiceFiles\SCHEMATIC1\lab2.sim ] 


 ****     INITIAL TRANSIENT SOLUTION       TEMPERATURE =   27.000 DEG C


******************************************************************************



 NODE   VOLTAGE     NODE   VOLTAGE     NODE   VOLTAGE     NODE   VOLTAGE


(   IN)   -1.0000  (  OUT)    3.4297  (N00190)    -.5973 (N00249)   15.0000     

(N00256)  -15.0000 (X_U1A.6)   -1.4994                   (X_U1A.7)    5.4604    

(X_U1A.8)    5.4604                   (X_U1A.9)    0.0000                       

(X_U1A.a)   14.9590                   (X_U1A.b)    -.0406                       

(X_U1A.10)     .0423                  (X_U1A.11)  -14.9200                      

(X_U1A.12)  -15.0000                  (X_U1A.13)     .0145                      

(X_U1A.14)     .0423                  (X_U1A.53)   13.5000                      

(X_U1A.54)  -14.1780                  (X_U1A.90)   40.6130                      

(X_U1A.91)   40.0000                  (X_U1A.92)  -40.0000                      

(X_U1A.99)    0.0000                  




    VOLTAGE SOURCE CURRENTS
    NAME         CURRENT

    V_V1        -4.393E-02
    V_V2        -3.320E-03
    V_V3         4.027E-02
    X_U1A.vb    -1.499E-05
    X_U1A.vc     1.007E-11
    X_U1A.ve     1.955E-11
    X_U1A.vlim   4.061E-02
    X_U1A.vlp    1.590E-05
    X_U1A.vln   -8.062E-11

    TOTAL POWER DISSIPATION   7.48E-01  WATTS



          JOB CONCLUDED

**** 05/21/20 19:12:29 ******* PSpice Lite (March 2016) ******* ID# 10813 ****

 ** Profile: "SCHEMATIC1-lab2"  [ C:\Users\yoyol\Desktop\Facultate\lab2-PSpiceFiles\SCHEMATIC1\lab2.sim ] 


 ****     JOB STATISTICS SUMMARY


******************************************************************************



  Total job time (using Solver 1)   =         .03
