
**** 04/09/20 17:08:19 ******* PSpice Lite (March 2016) ******* ID# 10813 ****

 ** Profile: "SCHEMATIC1-lab7-tema11"  [ c:\users\yoyol\desktop\facultate\laborator7-team11-PSpiceFiles\SCHEMATIC1\lab7-tema11.sim ] 


 ****     CIRCUIT DESCRIPTION


******************************************************************************




** Creating circuit file "lab7-tema11.cir" 
** WARNING: THIS AUTOMATICALLY GENERATED FILE MAY BE OVERWRITTEN BY SUBSEQUENT SIMULATIONS

*Libraries: 
* Profile Libraries :
* Local Libraries :
* From [PSPICE NETLIST] section of C:\Users\yoyol\AppData\Roaming\SPB_Data\cdssetup\OrCAD_PSpice\17.2.0\PSpice.ini file:
.lib "nomd.lib" 

*Analysis directives: 
.TRAN  0 2ms 0 10us 
.OPTIONS ADVCONV
.PROBE64 V(alias(*)) I(alias(*)) W(alias(*)) D(alias(*)) NOISE(alias(*)) 
.INC "..\SCHEMATIC1.net" 



**** INCLUDING SCHEMATIC1.net ****
* source LABORATOR7-TEAM11
E_U1         VO 0 VALUE {LIMIT(V(VP,VN)*1E6,-15V,+15V)}
R_R1         0 VN  1k TC=0,0 
R_R2         VN VO  1k TC=0,0 
R_R3         VP VO  1k TC=0,0 
R_R5         0 N01710  1k TC=0,0 
V_V1         VP 0 1V
V_V2         N01710 0 1V
R_R6         0 VP  500 TC=0,0 

**** RESUMING lab7-tema11.cir ****
.END

**** 04/09/20 17:08:19 ******* PSpice Lite (March 2016) ******* ID# 10813 ****

 ** Profile: "SCHEMATIC1-lab7-tema11"  [ c:\users\yoyol\desktop\facultate\laborator7-team11-PSpiceFiles\SCHEMATIC1\lab7-tema11.sim ] 


 ****     INITIAL TRANSIENT SOLUTION       TEMPERATURE =   27.000 DEG C


******************************************************************************



 NODE   VOLTAGE     NODE   VOLTAGE     NODE   VOLTAGE     NODE   VOLTAGE


(   VN)    1.0000  (   VO)    2.0000  (   VP)    1.0000  (N01710)    1.0000 




    VOLTAGE SOURCE CURRENTS
    NAME         CURRENT

    V_V1        -1.000E-03
    V_V2        -1.000E-03

    TOTAL POWER DISSIPATION   2.00E-03  WATTS



          JOB CONCLUDED

**** 04/09/20 17:08:19 ******* PSpice Lite (March 2016) ******* ID# 10813 ****

 ** Profile: "SCHEMATIC1-lab7-tema11"  [ c:\users\yoyol\desktop\facultate\laborator7-team11-PSpiceFiles\SCHEMATIC1\lab7-tema11.sim ] 


 ****     JOB STATISTICS SUMMARY


******************************************************************************



  Total job time (using Solver 1)   =        0.00
