
**** 05/20/20 19:06:54 ******* PSpice Lite (March 2016) ******* ID# 10813 ****

 ** Profile: "SCHEMATIC1-lab1"  [ C:\Users\yoyol\Desktop\Facultate\lab1-PSpiceFiles\SCHEMATIC1\lab1.sim ] 


 ****     CIRCUIT DESCRIPTION


******************************************************************************




** Creating circuit file "lab1.cir" 
** WARNING: THIS AUTOMATICALLY GENERATED FILE MAY BE OVERWRITTEN BY SUBSEQUENT SIMULATIONS

*Libraries: 
* Profile Libraries :
* Local Libraries :
* From [PSPICE NETLIST] section of C:\Users\yoyol\AppData\Roaming\SPB_Data\cdssetup\OrCAD_PSpice\17.2.0\PSpice.ini file:
.lib "nomd.lib" 

*Analysis directives: 
.OP
.OPTIONS ADVCONV
.PROBE64 V(alias(*)) I(alias(*)) W(alias(*)) D(alias(*)) NOISE(alias(*)) 
.INC "..\SCHEMATIC1.net" 



**** INCLUDING SCHEMATIC1.net ****
* source LAB1
Q_Q1         N01217 IN OUT Q2N2222
Q_Q2         OUT N01290 IN Q2N2222
V_V1         N01217 0 12V
V_V2         N01286 0 12V
R_R1         IN N01217  150k TC=0,0 
R_R2         0 OUT  1k TC=0,0 
R_R3         0 IN  1k TC=0,0 
R_R4         N01286 N01290  1.5Meg TC=0,0 
R_R5         OUT N01286  5.1k TC=0,0 

**** RESUMING lab1.cir ****
.END

**** 05/20/20 19:06:54 ******* PSpice Lite (March 2016) ******* ID# 10813 ****

 ** Profile: "SCHEMATIC1-lab1"  [ C:\Users\yoyol\Desktop\Facultate\lab1-PSpiceFiles\SCHEMATIC1\lab1.sim ] 


 ****     BJT MODEL PARAMETERS


******************************************************************************




               Q2N2222         
               NPN             
       LEVEL    1            
          IS   14.340000E-15 
          BF  255.9          
          NF    1            
         VAF   74.03         
         IKF     .2847       
         ISE   14.340000E-15 
          NE    1.307        
          BR    6.092        
          NR    1            
         ISS    0            
          RB   10            
          RE    0            
          RC    1            
         CJE   22.010000E-12 
         VJE     .75         
         MJE     .377        
         CJC    7.306000E-12 
         VJC     .75         
         MJC     .3416       
        XCJC    1            
         CJS    0            
         VJS     .75         
          TF  411.100000E-12 
         XTF    3            
         VTF    1.7          
         ITF     .6          
          TR   46.910000E-09 
         XTB    1.5          
          KF    0            
          AF    1            
          CN    2.42         
           D     .87         


**** 05/20/20 19:06:54 ******* PSpice Lite (March 2016) ******* ID# 10813 ****

 ** Profile: "SCHEMATIC1-lab1"  [ C:\Users\yoyol\Desktop\Facultate\lab1-PSpiceFiles\SCHEMATIC1\lab1.sim ] 


 ****     SMALL SIGNAL BIAS SOLUTION       TEMPERATURE =   27.000 DEG C


******************************************************************************



 NODE   VOLTAGE     NODE   VOLTAGE     NODE   VOLTAGE     NODE   VOLTAGE


(   IN)    1.0236  (  OUT)    1.1783  (N01217)   12.0000 (N01286)   12.0000     

(N01290)    1.6683 




    VOLTAGE SOURCE CURRENTS
    NAME         CURRENT

    V_V1        -7.318E-05
    V_V2        -2.129E-03

    TOTAL POWER DISSIPATION   2.64E-02  WATTS


**** 05/20/20 19:06:54 ******* PSpice Lite (March 2016) ******* ID# 10813 ****

 ** Profile: "SCHEMATIC1-lab1"  [ C:\Users\yoyol\Desktop\Facultate\lab1-PSpiceFiles\SCHEMATIC1\lab1.sim ] 


 ****     OPERATING POINT INFORMATION      TEMPERATURE =   27.000 DEG C


******************************************************************************






**** BIPOLAR JUNCTION TRANSISTORS


NAME         Q_Q1        Q_Q2      
MODEL        Q2N2222     Q2N2222   
IB          -1.82E-12    6.89E-06 
IC           1.42E-11    9.44E-04 
VBE         -1.55E-01    6.45E-01 
VBC         -1.10E+01    4.90E-01 
VCE          1.08E+01    1.55E-01 
BETADC      -7.82E+00    1.37E+02 
GM          -1.45E-13    3.64E-02 
RPI          1.21E+14    4.43E+03 
RX           1.00E+01    1.00E+01 
RO           7.73E+11    9.21E+03 
CBE          2.05E-11    5.13E-11 
CBC          2.86E-12    1.48E-11 
CJS          0.00E+00    0.00E+00 
BETAAC      -1.75E+01    1.61E+02 
CBX/CBX2     0.00E+00    0.00E+00 
FT/FT2      -9.85E-04    8.76E+07 



          JOB CONCLUDED

**** 05/20/20 19:06:54 ******* PSpice Lite (March 2016) ******* ID# 10813 ****

 ** Profile: "SCHEMATIC1-lab1"  [ C:\Users\yoyol\Desktop\Facultate\lab1-PSpiceFiles\SCHEMATIC1\lab1.sim ] 


 ****     JOB STATISTICS SUMMARY


******************************************************************************



  Total job time (using Solver 1)   =         .03
